! My data
# GHZ S MA R 50
0.1                    0.0500163          43.295         0.964813        -2.45914         0.964653          -2.456        0.0499843         43.6166  
0.1149                 0.0539677         46.6934         0.964477        -2.82287         0.964313        -2.81983        0.0539735         47.0106  
0.129800008            0.0581152         49.5617         0.964113        -3.18617         0.963945        -3.18322        0.0581555          49.873  
0.1447                 0.0624175         51.9873          0.96372        -3.54905         0.963548        -3.54618        0.0624896         52.2929  
0.1596                 0.0668427         54.0441         0.963299        -3.91148         0.963122        -3.90867        0.0669439         54.3449  
0.1745                  0.071366         55.7934         0.962849        -4.27345         0.962668        -4.27069        0.0714939         56.0908  
0.1894                 0.0759678         57.2852         0.962371        -4.63494         0.962186        -4.63223        0.0761204         57.5807  
0.2043                 0.0806327         58.5605         0.961865        -4.99595         0.961676        -4.99326        0.0808082         58.8557  
0.2192                 0.0853483         59.6527         0.961331        -5.35646         0.961139        -5.35379         0.085545         59.9491  
0.2341                 0.0901049         60.5892          0.96077        -5.71645         0.960574        -5.71378        0.0903213         60.8882  
0.249                  0.0948942         61.3925         0.960181        -6.07592         0.959982        -6.07324        0.0951291         61.6954  
0.263900016            0.0997096         62.0813         0.959566        -6.43484         0.959363        -6.43215        0.0999619         62.3892  
0.2788                  0.104546          62.671         0.958923        -6.79321         0.958718        -6.79049         0.104814         62.9849  
0.2937                  0.109398         63.1745         0.958254        -7.15101         0.958046        -7.14825         0.109682         63.4955  
0.3086                  0.114262         63.6027         0.957559        -7.50823         0.957347        -7.50543         0.114561         63.9316  
0.3235                  0.119136         63.9647         0.956837        -7.86486         0.956623          -7.862         0.119447         64.3023  
0.3384                  0.124015         64.2685         0.956089        -8.22088         0.955872        -8.21796          0.12434         64.6155  
0.3533                  0.128898         64.5207         0.955316        -8.57629         0.955097         -8.5733         0.129235         64.8777  
0.3682                  0.133783          64.727         0.954517        -8.93107         0.954296          -8.928         0.134131         65.0945  
0.3831                  0.138667         64.8923         0.953693        -9.28522          0.95347        -9.28206         0.139026         65.2709  
0.398                   0.143548         65.0209         0.952844        -9.63871         0.952619        -9.63546         0.143918          65.411  
0.4129                  0.148427         65.1165         0.951971        -9.99154         0.951743        -9.98819         0.148806         65.5187  
0.4278                    0.1533         65.1825         0.951073        -10.3437         0.950844        -10.3402         0.153689          65.597  
0.4427                  0.158168         65.2216         0.950151        -10.6952          0.94992        -10.6916         0.158566         65.6488  
0.4576                  0.163028         65.2364         0.949205         -11.046         0.948973        -11.0423         0.163435         65.6766  
0.4725                   0.16788         65.2292         0.948236         -11.396         0.948002        -11.3922         0.168295         65.6826  
0.4874                  0.172723         65.2018         0.947243        -11.7454         0.947008        -11.7415         0.173146         65.6687  
0.502300032             0.177557         65.1561         0.946227         -12.094         0.945991          -12.09         0.177987         65.6367  
0.5172                  0.182379         65.0935         0.945188         -12.442         0.944951        -12.4378         0.182817         65.5882  
0.532100032             0.187191         65.0157         0.944127        -12.7891          0.94389        -12.7848         0.187635         65.5245  
0.547                    0.19199         64.9237         0.943044        -13.1356         0.942805        -13.1311         0.192441         65.4468  
0.561900032             0.196777         64.8187         0.941939        -13.4812           0.9417        -13.4766         0.197235         65.3564  
0.5768                  0.201551         64.7018         0.940812        -13.8261         0.940572        -13.8214         0.202015         65.2541  
0.591700032             0.206311         64.5738         0.939663        -14.1702         0.939424        -14.1653         0.206781          65.141  
0.6066                  0.211057         64.4357         0.938494        -14.5136         0.938254        -14.5085         0.211533         65.0179  
0.621500032             0.215788         64.2882         0.937304        -14.8561         0.937064        -14.8509          0.21627         64.8854  
0.6364                  0.220505          64.132         0.936093        -15.1979         0.935854        -15.1925         0.220991         64.7444  
0.651300032             0.225206         63.9677         0.934862        -15.5388         0.934623        -15.5333         0.225697         64.5954  
0.6662                  0.229891          63.796         0.933612         -15.879         0.933372        -15.8733         0.230388          64.439  
0.681100032             0.234559         63.6173         0.932341        -16.2183         0.932102        -16.2124         0.235061         64.2757  
0.696                   0.239212         63.4321         0.931051        -16.5567         0.930813        -16.5508         0.239718         64.1061  
0.710900032             0.243847          63.241         0.929742        -16.8944         0.929505        -16.8883         0.244358         63.9305  
0.7258                  0.248465         63.0442         0.928415        -17.2312         0.928178        -17.2249         0.248981         63.7494  
0.740700032             0.253066         62.8423         0.927069        -17.5672         0.926833        -17.5607         0.253586         63.5632  
0.7556                  0.257649         62.6355         0.925704        -17.9023         0.925469        -17.8957         0.258173         63.3722  
0.770500032             0.262213         62.4242         0.924322        -18.2365         0.924088        -18.2298         0.262742         63.1767  
0.7854                   0.26676         62.2087         0.922922        -18.5699          0.92269         -18.563         0.267293         62.9771  
0.800300032             0.271287         61.9893         0.921505        -18.9024         0.921274        -18.8954         0.271825         62.7736  
0.8152                  0.275796         61.7662         0.920071        -19.2341         0.919841        -19.2269         0.276338         62.5664  
0.830099968             0.280286         61.5397          0.91862        -19.5649         0.918391        -19.5575         0.280831         62.3559  
0.845                   0.284756           61.31         0.917153        -19.8948         0.916925        -19.8872         0.285306         62.1423  
0.859899968             0.289208         61.0773         0.915669        -20.2238         0.915443        -20.2161         0.289761         61.9257  
0.8748                  0.293639         60.8419          0.91417        -20.5519         0.913945         -20.544         0.294196         61.7063  
0.889699968             0.298051         60.6038         0.912655        -20.8791         0.912432        -20.8711         0.298612         61.4844  
0.9046                  0.302442         60.3634         0.911124        -21.2054         0.910903        -21.1973         0.303007         61.2601  
0.919499968             0.306813         60.1207         0.909579        -21.5308          0.90936        -21.5226         0.307382         61.0336  
0.9344                  0.311164          59.876         0.908019        -21.8553         0.907802        -21.8469         0.311737          60.805  
0.949299968             0.315495         59.6292         0.906444        -22.1789         0.906229        -22.1704         0.316071         60.5744  
0.9642                  0.319805         59.3807         0.904855        -22.5016         0.904642        -22.4929         0.320385         60.3421  
0.979099968             0.324094         59.1305         0.903253        -22.8234         0.903041        -22.8146         0.324678         60.1081  
0.994                   0.328362         58.8787         0.901636        -23.1442         0.901427        -23.1353          0.32895         59.8726  
1.00890003              0.332609         58.6255         0.900006        -23.4641         0.899799        -23.4551           0.3332         59.6356  
1.0238                  0.336835         58.3709         0.898363        -23.7832         0.898159         -23.774          0.33743         59.3972  
1.03869997              0.341039         58.1151         0.896708        -24.1012         0.896505        -24.0919         0.341639         59.1577  
1.05359994              0.345223         57.8581         0.895039        -24.4184         0.894839         -24.409         0.345826          58.917  
1.06850003              0.349385            57.6         0.893359        -24.7346         0.893161        -24.7251         0.349992         58.6752  
1.08340006              0.353525          57.341         0.891666        -25.0499          0.89147        -25.0403         0.354136         58.4325  
1.09830003              0.357644         57.0811         0.889962        -25.3642         0.889768        -25.3545         0.358259         58.1888  
1.1132                  0.361741         56.8204         0.888246        -25.6777         0.888055        -25.6678          0.36236         57.9444  
1.1281001               0.365816          56.559         0.886519        -25.9901          0.88633        -25.9802         0.366439         57.6992  
1.14300006               0.36987         56.2968          0.88478        -26.3017         0.884594        -26.2917         0.370497         57.4534  
1.15790003              0.373902         56.0341         0.883032        -26.6123         0.882848        -26.6022         0.374532         57.2069  
1.1728                  0.377911         55.7708         0.881272         -26.922         0.881091        -26.9118         0.378546         56.9599  
1.1877001               0.381899          55.507         0.879503        -27.2307         0.879323        -27.2204         0.382538         56.7124  
1.20260006              0.385865         55.2428         0.877723        -27.5385         0.877546        -27.5281         0.386508         56.4644  
1.21750003              0.389808         54.9782         0.875934        -27.8453         0.875759        -27.8349         0.390456         56.2161  
1.2324                   0.39373         54.7132         0.874135        -28.1512         0.873963        -28.1407         0.394381         55.9674  
1.24729997               0.39763          54.448         0.872326        -28.4562         0.872157        -28.4456         0.398285         55.7185  
1.26219994              0.401507         54.1826         0.870509        -28.7602         0.870343        -28.7496         0.402167         55.4693  
1.2770999               0.405362         53.9169         0.868683        -29.0633         0.868519        -29.0526         0.406026         55.2199  
1.292                   0.409195         53.6511         0.866849        -29.3654         0.866687        -29.3547         0.409864         54.9703  
1.30689997              0.413006         53.3852         0.865006        -29.6666         0.864847        -29.6558         0.413679         54.7206  
1.32179994              0.416795         53.1192         0.863155        -29.9669         0.862998        -29.9561         0.417472         54.4709  
1.3366999               0.420561         52.8531         0.861296        -30.2662         0.861142        -30.2553         0.421243         54.2211  
1.3516                  0.424306         52.5871          0.85943        -30.5645         0.859278        -30.5537         0.424992         53.9712  
1.36649997              0.428028          52.321         0.857556         -30.862         0.857406        -30.8511         0.428719         53.7214  
1.38139994              0.431728          52.055         0.855675        -31.1585         0.855527        -31.1475         0.432424         53.4716  
1.3962999               0.435406         51.7891         0.853787         -31.454         0.853642        -31.4431         0.436106         53.2219  
1.4112                  0.439061         51.5233         0.851892        -31.7487         0.851749        -31.7377         0.439767         52.9724  
1.42609997              0.442695         51.2577         0.849991        -32.0423          0.84985        -32.0314         0.443405         52.7229  
1.44099994              0.446306         50.9922         0.848083        -32.3351         0.847944        -32.3241         0.447021         52.4736  
1.4558999               0.449896         50.7269         0.846169        -32.6269         0.846033        -32.6159         0.450616         52.2245  
1.4708                  0.453463         50.4618         0.844249        -32.9178         0.844115        -32.9068         0.454188         51.9756  
1.48569997              0.457009          50.197         0.842323        -33.2078         0.842191        -33.1968         0.457738         51.7269  
1.50059994              0.460532         49.9323         0.840392        -33.4968         0.840262        -33.4858         0.461267         51.4784  
1.5154999               0.464034          49.668         0.838456        -33.7849         0.838328        -33.7739         0.464773         51.2302  
1.5304                  0.467513          49.404         0.836514        -34.0721         0.836388        -34.0611         0.468258         50.9823  
1.54529997              0.470971         49.1403         0.834567        -34.3584         0.834443        -34.3474         0.471721         50.7347  
1.56019994              0.474407         48.8769         0.832616        -34.6438         0.832494        -34.6328         0.475162         50.4874  
1.5750999               0.477821         48.6138          0.83066        -34.9282          0.83054        -34.9172         0.478581         50.2405  
1.59                    0.481214         48.3511         0.828699        -35.2117         0.828581        -35.2008         0.481979         49.9939  
1.60489997              0.484585         48.0888         0.826734        -35.4943         0.826618        -35.4834         0.485355         49.7477  
1.61979994              0.487934         47.8269         0.824766         -35.776         0.824651        -35.7651          0.48871         49.5018  
1.6346999               0.491262         47.5653         0.822793        -36.0568          0.82268        -36.0459         0.492043         49.2564  
1.6496                  0.494569         47.3042         0.820816        -36.3367         0.820705        -36.3258         0.495355         49.0114  
1.66449997              0.497854         47.0435         0.818836        -36.6156         0.818727        -36.6048         0.498646         48.7668  
1.67939994              0.501118         46.7833         0.816853        -36.8937         0.816745         -36.883         0.501915         48.5226  
1.69430003               0.50436         46.5235         0.814866        -37.1709          0.81476        -37.1602         0.505163         48.2788  
1.7092                  0.507582         46.2642         0.812877        -37.4472         0.812771        -37.4365         0.508389         48.0355  
1.72409997              0.510782         46.0053         0.810884        -37.7226          0.81078        -37.7119         0.511595         47.7927  
1.73899994              0.513961          45.747         0.808889        -37.9971         0.808786        -37.9865          0.51478         47.5504  
1.75390003              0.517119         45.4891         0.806891        -38.2707          0.80679        -38.2601         0.517944         47.3085  
1.7688                  0.520257         45.2317          0.80489        -38.5434          0.80479        -38.5329         0.521086         47.0672  
1.78369997              0.523373         44.9749         0.802888        -38.8152         0.802789        -38.8048         0.524209         46.8263  
1.79859994              0.526469         44.7185         0.800883        -39.0862         0.800785        -39.0759          0.52731         46.5859  
1.81350003              0.529545         44.4627         0.798876        -39.3563          0.79878         -39.346         0.530391         46.3461  
1.8284                  0.532599         44.2074         0.796867        -39.6255         0.796772        -39.6153         0.533451         46.1068  
1.84329997              0.535634         43.9526         0.794857        -39.8939         0.794763        -39.8837         0.536491          45.868  
1.85819994              0.538647         43.6984         0.792845        -40.1614         0.792752        -40.1513         0.539511         45.6298  
1.87310003              0.541641         43.4448         0.790832         -40.428         0.790739         -40.418          0.54251         45.3921  
1.888                   0.544614         43.1917         0.788817        -40.6938         0.788725        -40.6838         0.545489         45.1549  
1.90289997              0.547568         42.9391         0.786801        -40.9587          0.78671        -40.9488         0.548448         44.9183  
1.91779994              0.550501         42.6871         0.784784        -41.2227         0.784694        -41.2129         0.551387         44.6823  
1.93270003              0.553414         42.4357         0.782766        -41.4859         0.782676        -41.4762         0.554306         44.4468  
1.9476                  0.556308         42.1849         0.780747        -41.7483         0.780658        -41.7386         0.557205         44.2119  
1.96249997              0.559182         41.9346         0.778728        -42.0098         0.778639        -42.0002         0.560085         43.9776  
1.97739994              0.562036          41.685         0.776708        -42.2705          0.77662         -42.261         0.562944         43.7438  
1.99230003              0.564871         41.4359         0.774687        -42.5304           0.7746        -42.5209         0.565785         43.5107  
2.0072                  0.567686         41.1874         0.772667        -42.7894          0.77258          -42.78         0.568606         43.2781  
2.02209997              0.570482         40.9395         0.770646        -43.0476         0.770559        -43.0383         0.571407         43.0461  
2.03699994              0.573258         40.6922         0.768624        -43.3049         0.768538        -43.2957         0.574189         42.8147  
2.0518999               0.576016         40.4455         0.766603        -43.5615         0.766517        -43.5524         0.576952         42.5839  
